Time[s], Channel 0, Channel 1
-0.000070500000000, 0, 1
-0.000066000000000, 0, 0
-0.000040000000000, 0, 1
-0.000013500000000, 0, 0
0.000000000000000, 1, 0
0.000013500000000, 1, 1
0.000039500000000, 1, 0
0.000052500000000, 0, 0
0.000065500000000, 0, 1
0.000092500000000, 0, 0
0.000119000000000, 0, 1
0.000145000000000, 0, 0
0.000171500000000, 0, 1
0.000198000000000, 0, 0
0.000211500000000, 1, 0
0.000224500000000, 1, 1
0.000250500000000, 1, 0
0.000264000000000, 0, 0
0.000277000000000, 0, 1
0.000303500000000, 0, 0
0.000330500000000, 0, 1
0.000356500000000, 0, 0
0.000382500000000, 0, 1
0.000409000000000, 0, 0
0.000423000000000, 1, 0
0.000436000000000, 1, 1
0.000462000000000, 1, 0
0.000488500000000, 1, 1
0.000515000000000, 1, 0
0.000528500000000, 0, 0
0.000541500000000, 0, 1
0.000567500000000, 0, 0
0.000594000000000, 0, 1
0.000620500000000, 0, 0
0.000634000000000, 1, 0
0.000647000000000, 1, 1
0.000673000000000, 1, 0
0.000686500000000, 0, 0
0.000699500000000, 0, 1
0.000726000000000, 0, 0
0.000752500000000, 0, 1
0.000779000000000, 0, 0
0.000792000000000, 1, 0
0.000805000000000, 1, 1
0.000831500000000, 1, 0
0.000845000000000, 0, 0
0.000858000000000, 0, 1
0.000884500000000, 0, 0
0.000910500000000, 0, 1
0.000937000000000, 0, 0
0.000964000000000, 0, 1
0.000990000000000, 0, 0
0.001003000000000, 1, 0
0.001016500000000, 1, 1
0.001043000000000, 1, 0
0.001056500000000, 0, 0
0.001069500000000, 0, 1
0.001095500000000, 0, 0
0.001122000000000, 0, 1
0.001148500000000, 0, 0
0.001175000000000, 0, 1
0.001201500000000, 0, 0
0.001214500000000, 1, 0
0.001227500000000, 1, 1
0.001254000000000, 1, 0
0.001267500000000, 0, 0
0.001281000000000, 0, 1
0.001307000000000, 0, 0
0.001333000000000, 0, 1
0.001359500000000, 0, 0
0.001386500000000, 0, 1
0.001415000000000, 0, 0
0.001428000000000, 1, 0
0.001441000000000, 1, 1
0.001467000000000, 1, 0
0.001480500000000, 0, 0
0.001494000000000, 0, 1
0.001520000000000, 0, 0
0.001533500000000, 1, 0
0.001546500000000, 1, 1
0.001572500000000, 1, 0
0.001599500000000, 1, 1
0.001625500000000, 1, 0
0.001639000000000, 0, 0
0.001652000000000, 0, 1
0.001678000000000, 0, 0
0.001705500000000, 0, 1
0.001731500000000, 0, 0
0.001758000000000, 0, 1
0.001784000000000, 0, 0
0.001811000000000, 0, 1
0.001837000000000, 0, 0
0.001850000000000, 1, 0
0.001863500000000, 1, 1
0.001889500000000, 1, 0
0.001903000000000, 0, 0
0.001916500000000, 0, 1
0.001942500000000, 0, 0
0.001969000000000, 0, 1
0.001995000000000, 0, 0
0.002022000000000, 0, 1
0.002048500000000, 0, 0
0.002074500000000, 0, 1
0.002100500000000, 0, 0
0.002128000000000, 0, 1
0.002154000000000, 0, 0
0.002180000000000, 0, 1
0.002206500000000, 0, 0
0.002233500000000, 0, 1
0.002259500000000, 0, 0
0.002272500000000, 1, 0
0.002286000000000, 1, 1
0.002312000000000, 1, 0
0.002339000000000, 1, 1
0.002365000000000, 1, 0
0.002391500000000, 1, 1
0.002417500000000, 1, 0
0.002444500000000, 1, 1
0.002471000000000, 1, 0
0.002484000000000, 0, 0
0.002497000000000, 0, 1
0.002523000000000, 0, 0
0.002550000000000, 0, 1
0.002576500000000, 0, 0
0.002603000000000, 0, 1
0.002629000000000, 0, 0
0.002656000000000, 0, 1
0.002682000000000, 0, 0
0.002695500000000, 1, 0
0.002708500000000, 1, 1
0.002734500000000, 1, 0
0.002748000000000, 0, 0
0.002761500000000, 0, 1
0.002787500000000, 0, 0
0.002814000000000, 0, 1
0.002840000000000, 0, 0
0.002867000000000, 0, 1
0.002893000000000, 0, 0
0.002919500000000, 0, 1
0.002945500000000, 0, 0
0.002972500000000, 0, 1
0.002999000000000, 0, 0
0.003025000000000, 0, 1
0.003051500000000, 0, 0
0.003065000000000, 1, 0
0.003078500000000, 1, 1
0.003104500000000, 1, 0
0.003117500000000, 0, 0
0.003130500000000, 0, 1
0.003157000000000, 0, 0
0.003184000000000, 0, 1
0.003210000000000, 0, 0
0.003236500000000, 0, 1
0.003262500000000, 0, 0
0.003289500000000, 0, 1
0.003318000000000, 0, 0
0.003331500000000, 1, 0
0.003344500000000, 1, 1
0.003370500000000, 1, 0
0.003397000000000, 1, 1
0.003423500000000, 1, 0
0.003449500000000, 1, 1
0.003475500000000, 1, 0
0.003489000000000, 0, 0
0.003502500000000, 0, 1
0.003529000000000, 0, 0
0.003542000000000, 1, 0
0.003555000000000, 1, 1
0.003581500000000, 1, 0
0.003608000000000, 1, 1
0.003634500000000, 1, 0
0.003647500000000, 0, 0
0.003660500000000, 0, 1
0.003687000000000, 0, 0
0.003713500000000, 0, 1
0.003740000000000, 0, 0
0.003766500000000, 0, 1
0.003792500000000, 0, 0
0.003806000000000, 1, 0
0.003819500000000, 1, 1
0.003846000000000, 1, 0
0.003859000000000, 0, 0
0.003872000000000, 0, 1
0.003898000000000, 0, 0
0.003925000000000, 0, 1
0.003951500000000, 0, 0
0.003978000000000, 0, 1
0.004004000000000, 0, 0
0.004017000000000, 1, 0
0.004030500000000, 1, 1
0.004057000000000, 1, 0
0.004070000000000, 0, 0
0.004083500000000, 0, 1
0.004109500000000, 0, 0
0.004136000000000, 0, 1
0.004162500000000, 0, 0
0.004189000000000, 0, 1
0.004215000000000, 0, 0
0.004228000000000, 1, 0
0.004241500000000, 1, 1
0.004268500000000, 1, 0
0.004294500000000, 1, 1
0.004320500000000, 1, 0
0.004334000000000, 0, 0
0.004347500000000, 0, 1
0.004374000000000, 0, 0
0.004400500000000, 0, 1
0.004426500000000, 0, 0
0.004440000000000, 1, 0
0.004453000000000, 1, 1
0.004479500000000, 1, 0
0.004493000000000, 0, 0
0.004506000000000, 0, 1
0.004535000000000, 0, 0
0.004561000000000, 0, 1
0.004588000000000, 0, 0
0.004601000000000, 1, 0
0.004614000000000, 1, 1
0.004640000000000, 1, 0
0.004653500000000, 0, 0
0.004666500000000, 0, 1
0.004693000000000, 0, 0
0.004719000000000, 0, 1
0.004745500000000, 0, 0
0.004772000000000, 0, 1
0.004798500000000, 0, 0
0.004811500000000, 1, 0
0.004825000000000, 1, 1
0.004851000000000, 1, 0
0.004864000000000, 0, 0
0.004877000000000, 0, 1
0.004904000000000, 0, 0
0.004930500000000, 0, 1
0.004956500000000, 0, 0
0.004982500000000, 0, 1
0.005009500000000, 0, 0
0.005023000000000, 1, 0
0.005036000000000, 1, 1
0.005062000000000, 1, 0
0.005075500000000, 0, 0
0.005088500000000, 0, 1
0.005115500000000, 0, 0
0.005141500000000, 0, 1
0.005167500000000, 0, 0
0.005194000000000, 0, 1
0.005223000000000, 0, 0
0.005236500000000, 1, 0
0.005249500000000, 1, 1
0.005275500000000, 1, 0
0.005289000000000, 0, 0
0.005302000000000, 0, 1
0.005328000000000, 0, 0
0.005341500000000, 1, 0
0.005354500000000, 1, 1
0.005381000000000, 1, 0
0.005407000000000, 1, 1
0.005433500000000, 1, 0
0.005447500000000, 0, 0
0.005460500000000, 0, 1
0.005486500000000, 0, 0
0.005512500000000, 0, 1
0.005539500000000, 0, 0
0.005566000000000, 0, 1
0.005592000000000, 0, 0
0.005618500000000, 0, 1
0.005645000000000, 0, 0
0.005658500000000, 1, 0
0.005671500000000, 1, 1
0.005697500000000, 1, 0
0.005711000000000, 0, 0
0.005724000000000, 0, 1
0.005750500000000, 0, 0
0.005777500000000, 0, 1
0.005803500000000, 0, 0
0.005829500000000, 0, 1
0.005856000000000, 0, 0
0.005883000000000, 0, 1
0.005909000000000, 0, 0
0.005935500000000, 0, 1
0.005962000000000, 0, 0
0.005988500000000, 0, 1
0.006014500000000, 0, 0
0.006041000000000, 0, 1
0.006067500000000, 0, 0
0.006081000000000, 1, 0
0.006094000000000, 1, 1
0.006120000000000, 1, 0
0.006146500000000, 1, 1
0.006173000000000, 1, 0
0.006200000000000, 1, 1
0.006226000000000, 1, 0
0.006252000000000, 1, 1
0.006278500000000, 1, 0
0.006292500000000, 0, 0
0.006305500000000, 0, 1
0.006331500000000, 0, 0
0.006358000000000, 0, 1
0.006384500000000, 0, 0
0.006411000000000, 0, 1
0.006437000000000, 0, 0
0.006463500000000, 0, 1
0.006490000000000, 0, 0
0.006503500000000, 1, 0
0.006519000000000, 1, 1
0.006545500000000, 1, 0
0.006558500000000, 0, 0
0.006571500000000, 0, 1
0.006597500000000, 0, 0
0.006624000000000, 0, 1
0.006650500000000, 0, 0
0.006676500000000, 0, 1
0.006703000000000, 0, 0
0.006730000000000, 0, 1
0.006756000000000, 0, 0
0.006782000000000, 0, 1
0.006808500000000, 0, 0
0.006835500000000, 0, 1
0.006861500000000, 0, 0
0.006875000000000, 1, 0
0.006888000000000, 1, 1
0.006914000000000, 1, 0
0.006927500000000, 0, 0
0.006941000000000, 0, 1
0.006967000000000, 0, 0
0.006993500000000, 0, 1
0.007019500000000, 0, 0
0.007046500000000, 0, 1
0.007073000000000, 0, 0
0.007099000000000, 0, 1
0.007127500000000, 0, 0
0.007141000000000, 1, 0
0.007154000000000, 1, 1
0.007180500000000, 1, 0
0.007206500000000, 1, 1
0.007233000000000, 1, 0
0.007259500000000, 1, 1
0.007286000000000, 1, 0
0.007299500000000, 0, 0
0.007312500000000, 0, 1
0.007338500000000, 0, 0
0.007352000000000, 1, 0
0.007365000000000, 1, 1
0.007391500000000, 1, 0
0.007418000000000, 1, 1
0.007444000000000, 1, 0
0.007457500000000, 0, 0
0.007470500000000, 0, 1
0.007497500000000, 0, 0
0.007523500000000, 0, 1
0.007549500000000, 0, 0
0.007576500000000, 0, 1
0.007603000000000, 0, 0
0.007616000000000, 1, 0
0.007629000000000, 1, 1
0.007655500000000, 1, 0
0.007668500000000, 0, 0
0.007682000000000, 0, 1
0.007708500000000, 0, 0
0.007735000000000, 0, 1
0.007761000000000, 0, 0
0.007787500000000, 0, 1
0.007814000000000, 0, 0
0.007827500000000, 1, 0
0.007840500000000, 1, 1
0.007866500000000, 1, 0
0.007880000000000, 0, 0
0.007893000000000, 0, 1
0.007920000000000, 0, 0
0.007946000000000, 0, 1
0.007972000000000, 0, 0
0.007998500000000, 0, 1
0.008025500000000, 0, 0
0.008038500000000, 1, 0
0.008051500000000, 1, 1
0.008078000000000, 1, 0
0.008104500000000, 1, 1
0.008131000000000, 1, 0
0.008144500000000, 0, 0
0.008157500000000, 0, 1
0.008183500000000, 0, 0
0.008210000000000, 0, 1
0.008236500000000, 0, 0
0.008250000000000, 1, 0
0.008263000000000, 1, 1
0.008289000000000, 1, 0
0.008302500000000, 0, 0
0.008315500000000, 0, 1
0.008342500000000, 0, 0
0.008368500000000, 0, 1
0.008394500000000, 0, 0
0.008408000000000, 1, 0
0.008421000000000, 1, 1
0.008448000000000, 1, 0
0.008461000000000, 0, 0
0.008474000000000, 0, 1
0.008500500000000, 0, 0
0.008527000000000, 0, 1
0.008553500000000, 0, 0
0.008580000000000, 0, 1
0.008606000000000, 0, 0
0.008619000000000, 1, 0
0.008632500000000, 1, 1
0.008659000000000, 1, 0
0.008672500000000, 0, 0
0.008685500000000, 0, 1
0.008711500000000, 0, 0
0.008738000000000, 0, 1
0.008765000000000, 0, 0
0.008791000000000, 0, 1
0.008817000000000, 0, 0
0.008830500000000, 1, 0
0.008844000000000, 1, 1
0.008870500000000, 1, 0
0.008883500000000, 0, 0
0.008896500000000, 0, 1
0.008923000000000, 0, 0
0.008949500000000, 0, 1
0.008976000000000, 0, 0
0.009002500000000, 0, 1
0.009031000000000, 0, 0
0.009044000000000, 1, 0
0.009057000000000, 1, 1
0.009083500000000, 1, 0
0.009097000000000, 0, 0
0.009110000000000, 0, 1
0.009136000000000, 0, 0
0.009149500000000, 1, 0
0.009162500000000, 1, 1
0.009189500000000, 1, 0
0.009215500000000, 1, 1
0.009242000000000, 1, 0
0.009255000000000, 0, 0
0.009268000000000, 0, 1
0.009295000000000, 0, 0
0.009321000000000, 0, 1
0.009347500000000, 0, 0
0.009373500000000, 0, 1
0.009400500000000, 0, 0
0.009427000000000, 0, 1
0.009453000000000, 0, 0
0.009466000000000, 1, 0
0.009479000000000, 1, 1
0.009506000000000, 1, 0
0.009519500000000, 0, 0
0.009532500000000, 0, 1
0.009558500000000, 0, 0
0.009585000000000, 0, 1
0.009612000000000, 0, 0
0.009638000000000, 0, 1
0.009664500000000, 0, 0
0.009690500000000, 0, 1
0.009717500000000, 0, 0
0.009743500000000, 0, 1
0.009770000000000, 0, 0
0.009796000000000, 0, 1
0.009823000000000, 0, 0
0.009849500000000, 0, 1
0.009875500000000, 0, 0
0.009888500000000, 1, 0
0.009901500000000, 1, 1
0.009928500000000, 1, 0
0.009955000000000, 1, 1
0.009981000000000, 1, 0
0.010007500000000, 1, 1
0.010034500000000, 1, 0
0.010060500000000, 1, 1
0.010086500000000, 1, 0
0.010100000000000, 0, 0
0.010113000000000, 0, 1
0.010140000000000, 0, 0
0.010166000000000, 0, 1
0.010192500000000, 0, 0
0.010218500000000, 0, 1
0.010245500000000, 0, 0
0.010271500000000, 0, 1
0.010298000000000, 0, 0
0.010311000000000, 1, 0
0.010324000000000, 1, 1
0.010351000000000, 1, 0
0.010378500000000, 0, 0
0.010391500000000, 0, 1
0.010417500000000, 0, 0
0.010444000000000, 0, 1
0.010470000000000, 0, 0
0.010496500000000, 0, 1
0.010522500000000, 0, 0
0.010549000000000, 0, 1
0.010575500000000, 0, 0
0.010601500000000, 0, 1
0.010628000000000, 0, 0
0.010654500000000, 0, 1
0.010681000000000, 0, 0
0.010694500000000, 1, 0
0.010707500000000, 1, 1
0.010733500000000, 1, 0
0.010746500000000, 0, 0
0.010760000000000, 0, 1
0.010786500000000, 0, 0
0.010813000000000, 0, 1
0.010839000000000, 0, 0
0.010865500000000, 0, 1
0.010892500000000, 0, 0
0.010918500000000, 0, 1
0.010947000000000, 0, 0
0.010960500000000, 1, 0
0.010973500000000, 1, 1
0.011000000000000, 1, 0
0.011026500000000, 1, 1
0.011052500000000, 1, 0
0.011078500000000, 1, 1
0.011105500000000, 1, 0
0.011118500000000, 0, 0
0.011132000000000, 0, 1
0.011158000000000, 0, 0
0.011171000000000, 1, 0
0.011184000000000, 1, 1
0.011211000000000, 1, 0
0.011237500000000, 1, 1
0.011263500000000, 1, 0
0.011277000000000, 0, 0
0.011290000000000, 0, 1
0.011317000000000, 0, 0
0.011343000000000, 0, 1
0.011369000000000, 0, 0
0.011395500000000, 0, 1
0.011422500000000, 0, 0
0.011435500000000, 1, 0
0.011449000000000, 1, 1
0.011475000000000, 1, 0
0.011488000000000, 0, 0
0.011501500000000, 0, 1
0.011528000000000, 0, 0
0.011554500000000, 0, 1
0.011580500000000, 0, 0
0.011607000000000, 0, 1
0.011633500000000, 0, 0
0.011647000000000, 1, 0
0.011660000000000, 1, 1
0.011686000000000, 1, 0
0.011699500000000, 0, 0
0.011712500000000, 0, 1
0.011739500000000, 0, 0
0.011765500000000, 0, 1
0.011792000000000, 0, 0
0.011818000000000, 0, 1
0.011845000000000, 0, 0
0.011858000000000, 1, 0
0.011871000000000, 1, 1
0.011897500000000, 1, 0
0.011923500000000, 1, 1
0.011950500000000, 1, 0
0.011963500000000, 0, 0
0.011977000000000, 0, 1
0.012003000000000, 0, 0
0.012029000000000, 0, 1
0.012056000000000, 0, 0
0.012069500000000, 1, 0
0.012082500000000, 1, 1
0.012108500000000, 1, 0
0.012122000000000, 0, 0
0.012135000000000, 0, 1
0.012162000000000, 0, 0
0.012188000000000, 0, 1
0.012214500000000, 0, 0
0.012227500000000, 1, 0
0.012240500000000, 1, 1
0.012267500000000, 1, 0
0.012280500000000, 0, 0
0.012293500000000, 0, 1
0.012320000000000, 0, 0
0.012346000000000, 0, 1
0.012373000000000, 0, 0
0.012399500000000, 0, 1
0.012425500000000, 0, 0
0.012438500000000, 1, 0
0.012451500000000, 1, 1
0.012478500000000, 1, 0
0.012492000000000, 0, 0
0.012505000000000, 0, 1
0.012533500000000, 0, 0
0.012559500000000, 0, 1
0.012586000000000, 0, 0
0.012612500000000, 0, 1
0.012638500000000, 0, 0
0.012652000000000, 1, 0
0.012665000000000, 1, 1
0.012691500000000, 1, 0
0.012705000000000, 0, 0
0.012718000000000, 0, 1
0.012744000000000, 0, 0
0.012770500000000, 0, 1
0.012797000000000, 0, 0
0.012823500000000, 0, 1
0.012852000000000, 0, 0
0.012865500000000, 1, 0
0.012878500000000, 1, 1
0.012904500000000, 1, 0
0.012917500000000, 0, 0
0.012931500000000, 0, 1
0.012957500000000, 0, 0
0.012970500000000, 1, 0
0.012984000000000, 1, 1
0.013010000000000, 1, 0
0.013037000000000, 1, 1
0.013063000000000, 1, 0
0.013076500000000, 0, 0
0.013089500000000, 0, 1
0.013115500000000, 0, 0
0.013142500000000, 0, 1
0.013168500000000, 0, 0
0.013195000000000, 0, 1
0.013221000000000, 0, 0
0.013248000000000, 0, 1
0.013274500000000, 0, 0
0.013287500000000, 1, 0
0.013300500000000, 1, 1
0.013326500000000, 1, 0
0.013340500000000, 0, 0
0.013354000000000, 0, 1
0.013380000000000, 0, 0
0.013406500000000, 0, 1
0.013432500000000, 0, 0
0.013459500000000, 0, 1
0.013485500000000, 0, 0
0.013512000000000, 0, 1
0.013538000000000, 0, 0
0.013565000000000, 0, 1
0.013591000000000, 0, 0
0.013617500000000, 0, 1
0.013643500000000, 0, 0
0.013670500000000, 0, 1
0.013697000000000, 0, 0
0.013710000000000, 1, 0
0.013723000000000, 1, 1
0.013749500000000, 1, 0
0.013776500000000, 1, 1
0.013802500000000, 1, 0
0.013829000000000, 1, 1
0.013855000000000, 1, 0
0.013882000000000, 1, 1
0.013908000000000, 1, 0
0.013921000000000, 0, 0
0.013934500000000, 0, 1
0.013960500000000, 0, 0
0.013987500000000, 0, 1
0.014013500000000, 0, 0
0.014040000000000, 0, 1
0.014066000000000, 0, 0
0.014093000000000, 0, 1
0.014119500000000, 0, 0
0.014132500000000, 1, 0
0.014145500000000, 1, 1
0.014171500000000, 1, 0
0.014185000000000, 0, 0
0.014199000000000, 0, 1
0.014225000000000, 0, 0
0.014251500000000, 0, 1
0.014277500000000, 0, 0
0.014304500000000, 0, 1
0.014330500000000, 0, 0
0.014357000000000, 0, 1
0.014383000000000, 0, 0
0.014410000000000, 0, 1
0.014436000000000, 0, 0
0.014462500000000, 0, 1
0.014488500000000, 0, 0
0.014502000000000, 1, 0
0.014515500000000, 1, 1
0.014542000000000, 1, 0
0.014555000000000, 0, 0
0.014568000000000, 0, 1
0.014594500000000, 0, 0
0.014621500000000, 0, 1
0.014647500000000, 0, 0
0.014673500000000, 0, 1
0.014700000000000, 0, 0
0.014727000000000, 0, 1
0.014755000000000, 0, 0
0.014768500000000, 1, 0
0.014781500000000, 1, 1
0.014807500000000, 1, 0
0.014834000000000, 1, 1
0.014860500000000, 1, 0
0.014887000000000, 1, 1
0.014913000000000, 1, 0
0.014926500000000, 0, 0
0.014939500000000, 0, 1
0.014966000000000, 0, 0
0.014979500000000, 1, 0
0.014992500000000, 1, 1
0.015018500000000, 1, 0
0.015045500000000, 1, 1
0.015072000000000, 1, 0
0.015085000000000, 0, 0
0.015098000000000, 0, 1
0.015124500000000, 0, 0
0.015151000000000, 0, 1
0.015177500000000, 0, 0
0.015204000000000, 0, 1
0.015230000000000, 0, 0
0.015243000000000, 1, 0
0.015256500000000, 1, 1
0.015283000000000, 1, 0
0.015296500000000, 0, 0
0.015309500000000, 0, 1
0.015335500000000, 0, 0
0.015362000000000, 0, 1
0.015388500000000, 0, 0
0.015415000000000, 0, 1
0.015441000000000, 0, 0
0.015454500000000, 1, 0
0.015468000000000, 1, 1
0.015494500000000, 1, 0
0.015507500000000, 0, 0
0.015521000000000, 0, 1
0.015547000000000, 0, 0
0.015573500000000, 0, 1
0.015600000000000, 0, 0
0.015626500000000, 0, 1
0.015652500000000, 0, 0
0.015665500000000, 1, 0
0.015679000000000, 1, 1
0.015705500000000, 1, 0
0.015732000000000, 1, 1
0.015758000000000, 1, 0
0.015771000000000, 0, 0
0.015784500000000, 0, 1
0.015811000000000, 0, 0
0.015837500000000, 0, 1
0.015863500000000, 0, 0
0.015877000000000, 1, 0
0.015890500000000, 1, 1
0.015917000000000, 1, 0
0.015930000000000, 0, 0
0.015943000000000, 0, 1
0.015969500000000, 0, 0
0.015996000000000, 0, 1
0.016022500000000, 0, 0
0.016035500000000, 1, 0
0.016049000000000, 1, 1
0.016075000000000, 1, 0
0.016088000000000, 0, 0
0.016101500000000, 0, 1
0.016128000000000, 0, 0
0.016154500000000, 0, 1
0.016180500000000, 0, 0
0.016207000000000, 0, 1
0.016233500000000, 0, 0
0.016247000000000, 1, 0
0.016260000000000, 1, 1
0.016286000000000, 1, 0
0.016299500000000, 0, 0
0.016312500000000, 0, 1
0.016339500000000, 0, 0
0.016365500000000, 0, 1
0.016392000000000, 0, 0
0.016418500000000, 0, 1
0.016445000000000, 0, 0
0.016458000000000, 1, 0
0.016471500000000, 1, 1
0.016497500000000, 1, 0
0.016510500000000, 0, 0
0.016524000000000, 0, 1
0.016550500000000, 0, 0
0.016577000000000, 0, 1
0.016603000000000, 0, 0
0.016629500000000, 0, 1
0.016658500000000, 0, 0
0.016672000000000, 1, 0
0.016685000000000, 1, 1
0.016711000000000, 1, 0
0.016724500000000, 0, 0
0.016737500000000, 0, 1
0.016764000000000, 0, 0
0.016777000000000, 1, 0
0.016790000000000, 1, 1
0.016816500000000, 1, 0
0.016842500000000, 1, 1
0.016869500000000, 1, 0
0.016882500000000, 0, 0
0.016896000000000, 0, 1
0.016922000000000, 0, 0
0.016948000000000, 0, 1
0.016975000000000, 0, 0
0.017001500000000, 0, 1
0.017027500000000, 0, 0
0.017054000000000, 0, 1
0.017080500000000, 0, 0
0.017094000000000, 1, 0
0.017107000000000, 1, 1
0.017133000000000, 1, 0
0.017146500000000, 0, 0
0.017159500000000, 0, 1
0.017186500000000, 0, 0
0.017212500000000, 0, 1
0.017239000000000, 0, 0
0.017265000000000, 0, 1
0.017292000000000, 0, 0
0.017318000000000, 0, 1
0.017344500000000, 0, 0
0.017370500000000, 0, 1
0.017397500000000, 0, 0
0.017424000000000, 0, 1
0.017450000000000, 0, 0
0.017476500000000, 0, 1
0.017503000000000, 0, 0
0.017516500000000, 1, 0
0.017529500000000, 1, 1
0.017555500000000, 1, 0
0.017582000000000, 1, 1
0.017609000000000, 1, 0
0.017635000000000, 1, 1
0.017661500000000, 1, 0
0.017687500000000, 1, 1
0.017714500000000, 1, 0
0.017727500000000, 0, 0
0.017740500000000, 0, 1
0.017767000000000, 0, 0
0.017793000000000, 0, 1
0.017820000000000, 0, 0
0.017846500000000, 0, 1
0.017872500000000, 0, 0
0.017899000000000, 0, 1
0.017925500000000, 0, 0
0.017939000000000, 1, 0
0.017952000000000, 1, 1
0.017978000000000, 1, 0
0.017991500000000, 0, 0
0.018004500000000, 0, 1
0.018031500000000, 0, 0
0.018057500000000, 0, 1
